Circuit: * Z:\home\m0rtal\uni\Year I Proj\Benchmarking examples\PNP_Diff_amp.asc

Direct Newton iteration for .op point succeeded.
Semiconductor Device Operating Points:
                        --- Bipolar Transistors ---
Name:       q2          q1
Model:    2n2222      2n2222
Ib:       2.36e-06    2.36e-06
Ic:       4.94e-04    4.94e-04
Vbe:      6.36e-01    6.36e-01
Vbc:     -5.06e+00   -5.06e+00
Vce:      5.69e+00    5.69e+00
BetaDC:   2.10e+02    2.10e+02
Gm:       1.91e-02    1.91e-02
Rpi:      1.10e+04    1.10e+04
Rx:       1.00e+01    1.00e+01
Ro:       2.12e+05    2.12e+05
Cbe:      4.63e-11    4.63e-11
Cbc:      4.07e-12    4.07e-12
Cjs:      0.00e+00    0.00e+00
BetaAC:   2.09e+02    2.09e+02
Cbx:      0.00e+00    0.00e+00
Ft:       6.03e+07    6.03e+07



Date: Wed Jun 09 15:02:40 2021
Total elapsed time: 0.058 seconds.

tnom = 27
temp = 27
method = trap
totiter = 8
traniter = 0
tranpoints = 0
accept = 0
rejected = 0
matrix size = 15
fillins = 0
solver = Normal
Matrix Compiler1: 756 bytes object code size
Matrix Compiler2: 1.17 KB object code size
